! TOUCHSTONE file generated by CST MICROWAVE STUDIO
! Date and time: Mon Oct 20 04:36:43 2025
! Project name: Diseño Final_German Pedre.cst
! Parameters = {Coef_Largo_Aba=2.5; Coef_Largo_Der=2.5; Cuarto=14; Cuarto2=8; Dist_Coef=0.15; Dist_sop=1.5; Er=4.6; Hc=0.035; Hr=1; Hs=1.524; Lamb=103.448; Lamb_sus=48.233; Lc=55; Le2=10; Lfeed=13.2; Lint=10.4; Lpad=1.5; Lr=2.15; Ls=55; LstubD=3; Lsup=8.3; Rpad=1; Rsop=1.5; Rvia=0.3; Wc=55; Wdelgada=0.6; WdelgadaA=0.7; WdelgadaD=1.4; We=0.75; Wfeed=4.5; Wgru=2.75; WgruA=3.3; WgruD=3.3; Wint=3; WintD=2; Wpadder=1; Wr=1.1; Ws=55; WstubD=1; Wsup=10.5; WtranA=2; WtranD=0.2; Xc=0; c=300; f=2.9}
! Header version: 2018
! Port assignment regex: !\s*Touchstone port\s*([0-9]+)\s*=\s*(CST MWS port|CST DS port)\s*([0-9]+|Zmin|Zmax)\s*\(\"(.*)\"\)(\s*mode\s*([0-9]+))?.*
! Touchstone port assignment:
! Touchstone port 1 = CST MWS port 1 ("")
! Touchstone port 2 = CST MWS port 2 ("")
# GHz S MA R 50
2.5                     0.436655         68.3036        0.0598057         170.555         0.059812         170.522         0.416024         59.2872
2.5008                  0.436153         68.1212        0.0597653         170.529        0.0597716         170.496         0.415575         59.0862
2.5016                   0.43565         67.9387        0.0597263         170.502        0.0597325         170.469         0.415126         58.8852
2.5024                  0.435146         67.7562        0.0596885         170.475        0.0596947         170.442         0.414677         58.6842
2.5032                  0.434641         67.5737         0.059652         170.448        0.0596581         170.415         0.414226         58.4832
2.504                   0.434135         67.3912        0.0596166         170.421        0.0596227         170.388         0.413775         58.2822
2.5048                  0.433629         67.2087        0.0595825         170.394        0.0595885          170.36         0.413324         58.0811
2.5056                  0.433121         67.0263        0.0595496         170.366        0.0595555         170.332         0.412872         57.8801
2.5064                  0.432613         66.8438        0.0595177         170.337        0.0595237         170.304         0.412419         57.6791
2.5072                  0.432104         66.6614         0.059487         170.309        0.0594929         170.275         0.411966         57.4781
2.508                   0.431594         66.4789        0.0594574          170.28        0.0594633         170.246         0.411513          57.277
2.5088                  0.431084         66.2964        0.0594289         170.251        0.0594347         170.217         0.411059          57.076
2.5096                  0.430573          66.114        0.0594014         170.221        0.0594072         170.187         0.410604         56.8749
2.5104                  0.430061         65.9315        0.0593749         170.191        0.0593806         170.157         0.410149         56.6739
2.5112                  0.429548         65.7491        0.0593494          170.16        0.0593551         170.126         0.409693         56.4728
2.512                   0.429034         65.5666        0.0593248         170.129        0.0593305         170.095         0.409237         56.2718
2.5128                   0.42852         65.3842        0.0593012         170.097        0.0593068         170.063          0.40878         56.0707
2.5136                  0.428005         65.2017        0.0592785         170.065        0.0592841         170.031         0.408323         55.8697
2.5144                  0.427489         65.0193        0.0592567         170.033        0.0592622         169.999         0.407865         55.6686
2.5152                  0.426972         64.8368        0.0592357         169.999        0.0592412         169.965         0.407407         55.4675
2.516                   0.426455         64.6544        0.0592156         169.966         0.059221         169.932         0.406948         55.2664
2.5168                  0.425937         64.4719        0.0591962         169.931        0.0592016         169.897         0.406489         55.0654
2.5176                  0.425419         64.2895        0.0591776         169.897         0.059183         169.862          0.40603         54.8643
2.5184                  0.424899          64.107        0.0591598         169.861        0.0591651         169.827          0.40557         54.6632
2.5192                  0.424379         63.9245        0.0591426         169.825        0.0591479         169.791         0.405109         54.4621
2.52                    0.423858         63.7421        0.0591262         169.789        0.0591315         169.754         0.404648         54.2609
2.5208                  0.423337         63.5596        0.0591104         169.752        0.0591156         169.717         0.404187         54.0598
2.5216                  0.422815         63.3771        0.0590953         169.714        0.0591005         169.679         0.403725         53.8587
2.5224                  0.422292         63.1946        0.0590807         169.676        0.0590859         169.641         0.403263         53.6576
2.5232                  0.421769         63.0121        0.0590667         169.637        0.0590719         169.602           0.4028         53.4564
2.524                   0.421245         62.8296        0.0590533         169.597        0.0590584         169.562         0.402337         53.2552
2.5248                   0.42072         62.6471        0.0590404         169.557        0.0590455         169.522         0.401873         53.0541
2.5256                  0.420194         62.4646        0.0590281         169.516        0.0590331         169.481         0.401409         52.8529
2.5264                  0.419668         62.2821        0.0590162         169.474        0.0590211         169.439         0.400945         52.6517
2.5272                  0.419142         62.0995        0.0590047         169.432        0.0590096         169.397          0.40048         52.4505
2.528                   0.418614          61.917        0.0589936         169.389        0.0589986         169.354         0.400014         52.2493
2.5288                  0.418086         61.7344         0.058983         169.345        0.0589879          169.31         0.399549         52.0481
2.5296                  0.417558         61.5518        0.0589727         169.301        0.0589776         169.266         0.399083         51.8468
2.5304                  0.417029         61.3692        0.0589628         169.256        0.0589676         169.221         0.398616         51.6456
2.5312                  0.416499         61.1866        0.0589532         169.211         0.058958         169.176         0.398149         51.4443
2.532                   0.415968          61.004        0.0589438         169.165        0.0589486         169.129         0.397682         51.2431
2.5328                  0.415437         60.8214        0.0589348         169.118        0.0589395         169.082         0.397214         51.0418
2.5336                  0.414905         60.6387         0.058926          169.07        0.0589307         169.035         0.396746         50.8405
2.5344                  0.414373          60.456        0.0589174         169.022         0.058922         168.987         0.396277         50.6391
2.5352                   0.41384         60.2734         0.058909         168.973        0.0589136         168.938         0.395809         50.4378
2.536                   0.413307         60.0906        0.0589007         168.924        0.0589053         168.888         0.395339         50.2364
2.5368                  0.412773         59.9079        0.0588926         168.874        0.0588972         168.838          0.39487         50.0351
2.5376                  0.412238         59.7252        0.0588847         168.823        0.0588892         168.787         0.394399         49.8337
2.5384                  0.411702         59.5424        0.0588768         168.772        0.0588813         168.736         0.393929         49.6323
2.5392                  0.411167         59.3596         0.058869          168.72        0.0588735         168.684         0.393458         49.4308
2.54                     0.41063         59.1768        0.0588613         168.667        0.0588658         168.631         0.392987         49.2294
2.5408                  0.410093         58.9939        0.0588536         168.614        0.0588581         168.578         0.392515         49.0279
2.5416                  0.409555          58.811        0.0588459          168.56        0.0588504         168.524         0.392043         48.8264
2.5424                  0.409017         58.6281        0.0588382         168.505        0.0588426         168.469         0.391571         48.6249
2.5432                  0.408478         58.4452        0.0588305          168.45        0.0588349         168.414         0.391098         48.4233
2.544                   0.407938         58.2623        0.0588227         168.394        0.0588271         168.358         0.390625         48.2218
2.5448                  0.407398         58.0793        0.0588149         168.338        0.0588192         168.302         0.390152         48.0202
2.5456                  0.406858         57.8963        0.0588069         168.281        0.0588112         168.245         0.389678         47.8186
2.5464                  0.406317         57.7132        0.0587989         168.224        0.0588031         168.187         0.389204         47.6169
2.5472                  0.405775         57.5301        0.0587907         168.166        0.0587949         168.129         0.388729         47.4153
2.548                   0.405232          57.347        0.0587823         168.107        0.0587866          168.07         0.388254         47.2136
2.5488                  0.404689         57.1639        0.0587738         168.048         0.058778         168.011         0.387779         47.0119
2.5496                  0.404146         56.9807        0.0587651         167.988        0.0587693         167.951         0.387303         46.8101
2.5504                  0.403601         56.7975        0.0587562         167.928        0.0587604         167.891         0.386827         46.6084
2.5512                  0.403057         56.6143        0.0587471         167.867        0.0587512          167.83          0.38635         46.4066
2.552                   0.402511          56.431        0.0587377         167.806        0.0587418         167.769         0.385873         46.2047
2.5528                  0.401965         56.2476        0.0587281         167.744        0.0587322         167.707         0.385396         46.0029
2.5536                  0.401419         56.0643        0.0587182         167.682        0.0587222         167.645         0.384918          45.801
2.5544                  0.400872         55.8809        0.0587079         167.619         0.058712         167.582          0.38444          45.599
2.5552                  0.400324         55.6974        0.0586974         167.556        0.0587015         167.519         0.383962         45.3971
2.556                   0.399776         55.5139        0.0586866         167.493        0.0586906         167.455         0.383483         45.1951
2.5568                  0.399227         55.3304        0.0586754         167.428        0.0586794         167.391         0.383004         44.9931
2.5576                  0.398677         55.1468        0.0586639         167.364        0.0586679         167.327         0.382524          44.791
2.5584                  0.398127         54.9632         0.058652         167.299        0.0586559         167.262         0.382045         44.5889
2.5592                  0.397576         54.7795        0.0586397         167.234        0.0586437         167.197         0.381564         44.3868
2.56                    0.397025         54.5958        0.0586271         167.168         0.058631         167.131         0.381083         44.1846
2.5608                  0.396473         54.4121         0.058614         167.102        0.0586179         167.065         0.380602         43.9824
2.5616                  0.395921         54.2282        0.0586005         167.036        0.0586043         166.998         0.380121         43.7802
2.5624                  0.395368         54.0444        0.0585865         166.969        0.0585904         166.932         0.379639         43.5779
2.5632                  0.394814         53.8605        0.0585722         166.902         0.058576         166.865         0.379157         43.3756
2.564                    0.39426         53.6765        0.0585573         166.835        0.0585611         166.797         0.378674         43.1732
2.5648                  0.393705         53.4925         0.058542         166.767        0.0585458         166.729         0.378191         42.9708
2.5656                  0.393149         53.3084        0.0585262         166.699          0.05853         166.661         0.377707         42.7683
2.5664                  0.392593         53.1243          0.05851         166.631        0.0585137         166.593         0.377224         42.5659
2.5672                  0.392036         52.9401        0.0584932         166.563        0.0584969         166.525         0.376739         42.3633
2.568                   0.391479         52.7559        0.0584759         166.494        0.0584796         166.456         0.376255         42.1607
2.5688                  0.390921         52.5716        0.0584581         166.425        0.0584618         166.387         0.375769         41.9581
2.5696                  0.390362         52.3872        0.0584398         166.356        0.0584435         166.318         0.375284         41.7554
2.5704                  0.389803         52.2028        0.0584209         166.287        0.0584246         166.248         0.374798         41.5527
2.5712                  0.389243         52.0183        0.0584015         166.217        0.0584052         166.179         0.374311           41.35
2.572                   0.388682         51.8338        0.0583816         166.148        0.0583852         166.109         0.373825         41.1472
2.5728                  0.388121         51.6492        0.0583611         166.078        0.0583647         166.039         0.373337         40.9443
2.5736                  0.387559         51.4646          0.05834         166.008        0.0583436         165.969          0.37285         40.7414
2.5744                  0.386996         51.2799        0.0583184         165.938        0.0583219         165.899         0.372362         40.5385
2.5752                  0.386433         51.0951        0.0582961         165.868        0.0582997         165.829         0.371873         40.3354
2.576                   0.385869         50.9102        0.0582733         165.797        0.0582769         165.759         0.371384         40.1324
2.5768                  0.385304         50.7253        0.0582499         165.727        0.0582534         165.688         0.370894         39.9293
2.5776                  0.384739         50.5403        0.0582259         165.657        0.0582294         165.618         0.370404         39.7261
2.5784                  0.384173         50.3553        0.0582014         165.587        0.0582048         165.548         0.369914         39.5229
2.5792                  0.383607         50.1702        0.0581762         165.516        0.0581796         165.477         0.369423         39.3197
2.58                    0.383039          49.985        0.0581504         165.446        0.0581538         165.407         0.368932         39.1163
2.5808                  0.382471         49.7997         0.058124         165.376        0.0581274         165.336          0.36844          38.913
2.5816                  0.381903         49.6144        0.0580969         165.305        0.0581003         165.266         0.367948         38.7095
2.5824                  0.381333          49.429        0.0580693         165.235        0.0580727         165.196         0.367455          38.506
2.5832                  0.380763         49.2435         0.058041         165.165        0.0580444         165.125         0.366962         38.3025
2.584                   0.380193         49.0579        0.0580122         165.095        0.0580155         165.055         0.366468         38.0989
2.5848                  0.379621         48.8723        0.0579827         165.025         0.057986         164.985         0.365974         37.8952
2.5856                  0.379049         48.6866        0.0579525         164.955        0.0579558         164.915         0.365479         37.6915
2.5864                  0.378476         48.5009        0.0579218         164.885        0.0579251         164.845         0.364984         37.4878
2.5872                  0.377902          48.315        0.0578904         164.815        0.0578937         164.776         0.364488         37.2839
2.588                   0.377328         48.1291        0.0578584         164.746        0.0578617         164.706         0.363992           37.08
2.5888                  0.376753         47.9431        0.0578258         164.677         0.057829         164.637         0.363495         36.8761
2.5896                  0.376177          47.757        0.0577926         164.608        0.0577958         164.568         0.362998         36.6721
2.5904                    0.3756         47.5708        0.0577587         164.539        0.0577619         164.499           0.3625          36.468
2.5912                  0.375023         47.3846        0.0577242          164.47        0.0577273          164.43         0.362002         36.2638
2.592                   0.374444         47.1983        0.0576891         164.402        0.0576922         164.362         0.361503         36.0596
2.5928                  0.373865         47.0118        0.0576533         164.334        0.0576564         164.293         0.361004         35.8554
2.5936                  0.373286         46.8253         0.057617         164.266        0.0576201         164.225         0.360504          35.651
2.5944                  0.372705         46.6388          0.05758         164.198        0.0575831         164.158         0.360003         35.4466
2.5952                  0.372124         46.4521        0.0575424         164.131        0.0575455         164.091         0.359502         35.2422
2.596                   0.371542         46.2654        0.0575042         164.064        0.0575072         164.024            0.359         35.0376
2.5968                  0.370959         46.0785        0.0574654         163.998        0.0574684         163.957         0.358498          34.833
2.5976                  0.370375         45.8916         0.057426         163.932         0.057429         163.891         0.357995         34.6284
2.5984                   0.36979         45.7046         0.057386         163.866         0.057389         163.825         0.357492         34.4236
2.5992                  0.369205         45.5175        0.0573454         163.801        0.0573484          163.76         0.356988         34.2188
2.6                     0.368619         45.3303        0.0573042         163.736        0.0573071         163.694         0.356483          34.014
2.6008                  0.368032         45.1431        0.0572625         163.671        0.0572654          163.63         0.355978          33.809
