!Keysight Technologies N9918A: A.08.01
!Date: Friday, 25 April 2025 16:58:00
!Timezone: (GMT-03:00) Buenos Aires
!Model: N9918A
!Serial: MY53105265
!GPS Latitude: 
!GPS Longitude: 
!GPS TimeStamp: 0001-01-01 00:00:00Z
!GPS Seconds Since Last Read: 0
!CHECKSUM:0469718480
!Correction: S11(ON U)S21(ON U)S12(ON U)S22(ON U)
!S2P File: Measurements:S11,S21,S12,S22:
# Hz S DB R 50
2400000000	-8.03962926545401	29.0582743914345	-26.4895688325159	-156.069764843658	-26.6125264356343	-156.677222313776	-9.16571407400809	22.9335500359446	
2401000000	-8.06264837800285	28.7141703979047	-26.653295649935	-157.120650317353	-26.4432007103534	-156.709973842622	-9.13362812761445	22.6280625301698	
2402000000	-8.05373023499689	28.1854768303774	-26.4929428495877	-157.396186709457	-26.6465435348716	-157.959457151278	-9.19376062293293	22.4955194878022	
2403000000	-8.0969193259614	28.1888259253925	-26.4560013932874	-158.802936095037	-26.4100946670132	-157.501158959851	-9.19791138221033	22.6247896351752	
2404000000	-8.11135875944553	28.0020525625902	-26.4961276387023	-159.011538378927	-26.3513270847857	-158.376444161394	-9.17622230376721	22.4157756153039	
2405000000	-8.11093063923208	27.7632007472545	-26.4041404630965	-159.732508908916	-26.3358353408007	-159.759048377825	-9.17625417186485	21.9425893684326	
2406000000	-8.13076611590728	27.690157313817	-26.5048985033782	-159.00264005302	-26.3196185342512	-160.35443119873	-9.21696077001457	21.8286235910275	
2407000000	-8.15720815626299	27.1649190560301	-26.5474466418891	-161.143715423088	-26.3855172053527	-160.137123467029	-9.1507259316341	21.7496031830522	
2408000000	-8.15412273277015	26.9210847527107	-26.5648392038619	-160.349932102046	-26.2245905531171	-160.124121741932	-9.16333411150029	21.8043369853175	
2409000000	-8.17293736719478	26.4701800934499	-26.3702551730532	-160.734870940107	-26.4255809404844	-160.746877172545	-9.13307933899568	21.6478232190299	
2410000000	-8.18768135838146	26.0361768226586	-26.2766531933919	-162.470405271345	-26.4858529444192	-160.884937211013	-9.18473690750917	21.3826829008912	
2411000000	-8.17252262198029	25.8844286563807	-26.017109627548	-161.231647852491	-26.3240411430081	-160.954809130042	-9.14442804816236	21.3643614452337	
2412000000	-8.19928389124452	25.3383628226991	-26.2000461685086	-160.274878212827	-26.2001367075927	-161.074467471666	-9.12357581286244	21.5528753341807	
2413000000	-8.19505969479112	25.1381804273117	-26.1982716994574	-163.064878949025	-26.1459034165017	-160.608977440458	-9.08498162507727	20.9754331902991	
2414000000	-8.18380287890812	24.4858677812263	-26.2524769909934	-161.257232141529	-26.0812361328948	-161.708750083474	-8.99912193431103	20.9879580919421	
2415000000	-8.24234135455335	24.0327195594586	-26.1820715456941	-163.058726512918	-25.9385272140622	-162.777207086195	-9.01211960118879	21.1679369532751	
2416000000	-8.23380624361372	23.4241702640151	-26.2092172179141	-163.130601136252	-25.8084908271268	-162.293084596899	-8.97175649620575	20.8736556502673	
2417000000	-8.21108856227101	23.1062393773217	-26.0971312986817	-164.432400410208	-25.9271309137825	-163.141034500359	-8.96656348319915	20.9218933114416	
2418000000	-8.22787800898734	22.2163213877495	-25.9965553617011	-162.421132682029	-25.7820668142131	-163.727427884473	-8.96316956441351	20.3618287450057	
2419000000	-8.24090743056503	22.1653076032402	-26.1178845378206	-162.514608285878	-25.8701877511115	-163.332682260599	-8.92697356498584	20.5164490620563	
2420000000	-8.2462834788308	21.3803603737067	-25.8040465036324	-162.441521567244	-25.8269314512445	-163.095600666811	-8.89577277484352	19.867191678451	
2421000000	-8.27720334692676	20.9498235128361	-25.5858804825482	-162.497641662725	-25.5301413752982	-163.076133338133	-8.87733809617131	20.0936632495335	
2422000000	-8.22443363928661	20.6914544845943	-25.5779345074555	-163.786904866071	-25.5440640214504	-163.044293110052	-8.84113663711755	19.7527516471584	
2423000000	-8.25175278721002	19.5693876379134	-25.2435890327044	-164.261269037778	-25.5479050235329	-163.048429453051	-8.86502196307101	19.6237924004803	
2424000000	-8.32683077474054	19.5523879824878	-25.530131299158	-164.521895933038	-25.3633226197786	-163.065322612586	-8.78475270419228	19.5769855618282	
2425000000	-8.34522542659867	18.7306166486292	-25.2901399792545	-165.259101479533	-25.3149364463302	-164.858654631423	-8.8024578932461	19.3481629856717	
2426000000	-8.32846334716886	18.3453857990704	-25.4671928660897	-165.246262692502	-25.1123117909439	-165.172600676535	-8.80162224907728	19.3394027961898	
2427000000	-8.37242647055945	18.1899125432415	-25.2462190901269	-166.338940356408	-25.2011002739622	-164.880285950362	-8.74860822943893	18.9106307857513	
2428000000	-8.36402071161547	17.2630012701934	-24.9800847964774	-166.539013987476	-25.0776383062665	-166.380646958969	-8.74099163011255	19.069143619464	
2429000000	-8.39811068026391	16.9912230066428	-25.0056096455244	-167.00017969887	-25.0301181227698	-166.914433261548	-8.72380015924471	18.7434821425753	
2430000000	-8.40864422584984	16.7342738947809	-24.8584794499576	-166.663596094919	-25.0361628599502	-167.332707454034	-8.7348861690442	18.7789265748012	
2431000000	-8.40691761489847	16.1699815418204	-24.8108196551086	-167.484503807554	-24.7662821285383	-168.078741687156	-8.71229321146995	18.4883980951487	
2432000000	-8.4198463076142	15.9065839584123	-24.7621092920629	-169.123150576825	-24.8641162196419	-169.615666124474	-8.68819353520693	18.2487408452026	
2433000000	-8.39479985917503	15.5927303844543	-24.7685498182911	-168.754164093567	-24.6270620103782	-169.508889600366	-8.69859222010773	18.2614095577726	
2434000000	-8.46140339072445	15.3483074649612	-24.543272808944	-169.356111555556	-24.6054114600079	-168.501671149208	-8.66129903273763	17.9806829918122	
2435000000	-8.43966545806897	15.0965662495373	-24.5664551642936	-169.496046959728	-24.5663655190543	-170.299024844424	-8.61266796566844	17.8023344315813	
2436000000	-8.42482822910772	14.8398661300356	-24.4649031134023	-170.010451383573	-24.6767540194812	-171.42739118765	-8.64117444121123	17.9318345662847	
2437000000	-8.38362900598949	14.566005929498	-24.5871307312912	-171.007656064375	-24.5041991515208	-171.018220875581	-8.67651779839122	17.766464021706	
2438000000	-8.38122383317632	14.1546584854192	-24.6103260607313	-172.040460503306	-24.5633327946389	-171.048334731326	-8.67937898296785	17.6361196411852	
2439000000	-8.39401487698526	14.0713920359314	-24.469853961975	-172.836298694929	-24.6030056466387	-172.445440183358	-8.63211329236251	17.4184019224072	
2440000000	-8.33941913429771	13.6863410609013	-24.6008873044647	-171.754770089272	-24.3907327500285	-172.011395683498	-8.69717252738879	17.4861256239677	
2441000000	-8.37334352718816	13.268235258178	-24.4381932454011	-172.372646823312	-24.3385232140396	-172.116714515108	-8.68268304647162	17.607631217919	
2442000000	-8.34951114493176	12.8950821076039	-24.37150186793	-172.226037989203	-24.3374613243146	-173.781290897419	-8.65924543762187	17.353493963036	
2443000000	-8.35019196507536	12.4772138756193	-24.3003553030832	-173.012342230074	-24.2923377019467	-173.687845729895	-8.59033074503848	17.3112733638684	
2444000000	-8.31156438387838	11.9868432125247	-24.1952319429085	-174.076323655949	-24.1643725750595	-172.574135792549	-8.6467857823195	17.2493342620988	
2445000000	-8.29080188982771	11.9102454469279	-24.0694471557264	-174.041948793985	-24.1999853763626	-175.082386977787	-8.64324431688149	17.1018741752362	
2446000000	-8.30537215377751	11.6283814141551	-24.0427591883422	-174.795325727517	-24.0762006385016	-174.701666004887	-8.70220768417249	16.7660783961904	
2447000000	-8.27725560124446	11.3496783812483	-24.0116806043196	-175.000684950594	-24.1128279647968	-175.080037794025	-8.65998912058742	16.8723801740509	
2448000000	-8.2796813588547	10.790928203027	-23.9129998841602	-175.656490322804	-23.8965231393449	-177.250292419043	-8.65755394106148	16.5480982668619	
2449000000	-8.30086063469563	10.9967368305849	-23.8428921853984	-177.144672445279	-23.9137285639622	-177.151498798068	-8.70913390054172	16.4884269281946	
2450000000	-8.23771976272769	10.1849748022904	-23.625780299122	-178.376564477804	-23.700317779341	-177.995780191851	-8.67422076851851	16.2591845380446	
2451000000	-8.23344927228996	9.97126451456913	-23.7199624699124	-178.121623381465	-23.7991135006077	-179.265417817506	-8.74209537089633	16.6195150505465	
2452000000	-8.26347803226139	10.2864609243192	-23.5570503410761	179.931047599917	-23.7914155607254	179.826168492483	-8.74524921501601	16.2842283086121	
2453000000	-8.24717212374089	9.9611135085452	-23.647517600439	-179.975320483867	-23.7302523001131	179.92607433848	-8.76020861414194	16.2373802026129	
2454000000	-8.23198082293202	9.79117219677443	-23.7485081630308	179.353173496122	-23.6925684322174	179.165581894624	-8.76042694123615	16.4492534293161	
2455000000	-8.29020109873822	9.57832703767324	-23.6980810008423	178.562040635661	-23.818358793831	177.773157240036	-8.79755491462612	16.2403025196994	
2456000000	-8.23321180069449	9.33255234126205	-23.7739242523202	177.561875818128	-23.6764295668246	178.180294899785	-8.78025991339174	15.9536218692724	
2457000000	-8.2456504390938	9.32884624520798	-23.8516811090387	177.591090224069	-23.6327677559471	176.765890929726	-8.80659310285637	15.7774582564354	
2458000000	-8.27744948608369	9.31871320542216	-23.7530252848798	176.809136506748	-23.7669590624251	176.945787131332	-8.81482502143547	16.0479389965922	
2459000000	-8.26662039333335	8.95613432124123	-23.7994979472493	176.1023682324	-23.7157621778605	175.510992439344	-8.85543814480812	15.9226112523982	
2460000000	-8.27698173298124	9.2202111288732	-23.8502030998478	176.171075970999	-23.8383316340761	175.359894027893	-8.85032997093589	15.5070618269617	
2461000000	-8.25190429812505	8.97240673436485	-23.8226000376503	176.209234028302	-23.7382005081547	175.194886674428	-8.88906717758499	15.4929977831218	
2462000000	-8.27714655150787	8.87216017114943	-23.6422613197896	174.101722454354	-23.7426992626748	175.284277407395	-8.87041876878722	15.3640951684489	
2463000000	-8.2800373961362	8.74342366946731	-23.6756464483378	174.654075343749	-23.7563481682274	174.441782969961	-8.90839038109291	15.2458986602975	
2464000000	-8.25536218480691	8.47733497809577	-23.6919599684649	174.641701293326	-23.748717311719	173.901318229397	-8.96327924256417	15.3477026678717	
2465000000	-8.29603910622663	8.61510881818867	-23.794668830156	174.903046522017	-23.5606910746009	174.078368514643	-8.9399196984618	15.0537403326163	
2466000000	-8.28059777319553	8.73672882763077	-23.7561189932972	173.486597549641	-23.6009977017828	173.967666934103	-8.97023181411915	14.933873444874	
2467000000	-8.30767376426536	8.20259733162158	-23.5628254535708	173.336623017646	-23.6221534042246	173.00926855902	-8.95811556816446	14.9912817132738	
2468000000	-8.30946321919308	8.05515462147179	-23.783481166666	172.916553443142	-23.606573201142	173.096287138909	-8.97283423952136	14.7196675368442	
2469000000	-8.35465573313086	7.78536113948368	-23.6529284608566	172.08478401596	-23.6230292131302	172.150792572603	-9.03366961793003	14.5596243259877	
2470000000	-8.3595872076262	7.89440380460041	-23.4925338005684	172.579639674771	-23.6121222236342	172.172063709754	-9.04331143972243	14.4497927387201	
2471000000	-8.36427370055258	7.75947557956641	-23.5062994163707	171.887493177274	-23.6180088291711	171.562067975114	-9.07003875860181	14.3232812042377	
2472000000	-8.34060861014501	7.51726156188496	-23.5270807851754	171.432523991249	-23.5638288463447	171.179656413389	-9.07254185032298	14.1678518034549	
2473000000	-8.36426586335569	7.47430378069926	-23.5622282220011	170.160423340424	-23.5461897404118	170.32797517561	-9.06037383206352	14.1014776919937	
2474000000	-8.3540226434724	7.20080807690603	-23.428164513035	170.38622212357	-23.5135847033006	169.765591027954	-9.08565879946275	13.5855626758665	
2475000000	-8.3780792591096	7.28782511404062	-23.4743590197279	170.292214797783	-23.5049837592292	169.937183785657	-9.12991090750217	13.5639054818709	
2476000000	-8.43993801633525	6.93990146445671	-23.3612326566542	169.530223538625	-23.563586150946	169.257074729612	-9.11916513346946	13.3711763964586	
2477000000	-8.38534972226169	6.67482700638791	-23.4455580163316	168.831229944351	-23.3528117813607	168.689705251664	-9.12081211511272	13.1641852925009	
2478000000	-8.44194881601701	6.47965924212982	-23.543619471307	169.054321711486	-23.3274235453897	169.116487559302	-9.11363272194012	12.6171789988124	
2479000000	-8.45718213413205	6.20036458713678	-23.4698308406269	168.963585511336	-23.5233635762992	168.217090265142	-9.13536278938938	12.6638069811062	
2480000000	-8.48620258915503	5.94512927325923	-23.5799516369915	168.216726108477	-23.5198019007709	167.286723965904	-9.19995202959423	12.0250659185126	
2481000000	-8.52846827615215	5.63991930484665	-23.4520941263852	167.638684818954	-23.3580545637506	168.740824869222	-9.15743224303727	11.8244655614487	
2482000000	-8.55657378613453	5.54673497987182	-23.3635967860299	167.484157645639	-23.2547468588439	167.84006415242	-9.21880269738965	11.7142897239284	
2483000000	-8.56491975171919	5.54732803180289	-23.4950050263249	167.256702042541	-23.3563445488225	166.586980032942	-9.18908693302513	11.3099560523511	
2484000000	-8.57437344625439	5.14017844870369	-23.3961913048358	165.944193183594	-23.3447593691834	167.042126608479	-9.21890406178814	11.0267689713693	
2485000000	-8.62463461092574	4.99481657007721	-23.3280512906923	164.50435263832	-23.2194039970143	166.524936596857	-9.2819481839274	10.6583929300564	
2486000000	-8.64580018074285	4.81341129446647	-23.2191946794828	165.276282320075	-23.2531951716415	166.507884046657	-9.27209189138118	10.2709726475852	
2487000000	-8.67863020546434	4.48765130725583	-23.2638464718922	165.587393297279	-23.3276049166175	165.324917089288	-9.22161028738274	10.029049450232	
2488000000	-8.67137577474813	4.31879568091544	-23.0390271233801	164.772967428361	-23.141190515636	164.518577105496	-9.25325403941985	10.0270692370069	
2489000000	-8.78561643868022	3.49666424143761	-23.1018838404072	164.422745298862	-23.0209515948478	163.735172008982	-9.31372541789021	9.36321408434635	
2490000000	-8.78886736507877	3.91215998474992	-23.2464839450842	163.4244569314	-23.2066254530385	163.585534571745	-9.2979587147282	9.23187474675104	
2491000000	-8.83438055394605	3.52091342635378	-23.1587289043139	163.368190156427	-23.1311430577891	163.252654358383	-9.27914710368705	8.81693838725873	
2492000000	-8.8784267347234	3.05053813364187	-23.0448030267556	163.808181904358	-23.1211140411241	163.72149844024	-9.31676474387142	8.49158822466874	
2493000000	-8.93980483525896	2.6140657495978	-23.0546312164776	162.966389515747	-23.1527410480508	162.645867919604	-9.29377222858146	8.06679975955012	
2494000000	-8.94194069124468	2.22440946532686	-23.1492865120974	161.44012344523	-23.0444697305685	161.967368721072	-9.36234110126579	7.45775659310269	
2495000000	-9.00324769315395	2.04310916933309	-22.935962622513	162.044077285721	-23.0162881219942	162.448504859388	-9.37737404529774	7.28460547601986	
2496000000	-9.02645894392796	1.66297913137323	-22.9829665553621	160.760240798472	-23.1247537493098	161.399235105522	-9.34330627542772	6.9225915454858	
2497000000	-9.03200850130847	1.49854872688486	-23.0462341773402	160.054139290314	-23.0634127997382	160.503362185773	-9.36084123594882	6.59370210086115	
2498000000	-9.08226439072355	1.22650099417315	-23.0080664655036	160.624820877641	-23.0118020561579	159.943500297271	-9.34944520463984	6.09339070137122	
2499000000	-9.10775601695845	0.842269202881179	-22.92639409086	158.835616829001	-23.0166223851108	159.376255204385	-9.33528525529579	5.74154267101348	
2500000000	-9.11417751773361	0.723740456444044	-22.9075038717796	158.327687683893	-23.1315055888056	158.103382114748	-9.36914296169988	5.71854485296367	
2501000000	-9.15394769673789	0.309652071685357	-23.0228686520011	158.263744425424	-23.0231587831945	157.487183337121	-9.39459138285243	5.23005080912318	
2502000000	-9.19105739379001	-0.417356885998988	-22.906125392215	158.280038445348	-23.0415095274168	158.393662725763	-9.41159021392337	5.39468003825411	
2503000000	-9.23284976032937	-0.403181309118623	-23.0172690130435	158.168236882033	-23.1088686086615	156.706232807033	-9.31464440200724	5.10315199648334	
2504000000	-9.17378091865146	-0.699066349524485	-22.9516848888468	157.148541479713	-22.970272513209	156.621768149898	-9.33062404353393	4.46996775139269	
2505000000	-9.27248302413698	-0.989013318678259	-23.0490143077355	156.059233857746	-23.0084089712929	155.917337915202	-9.32367382462501	4.11433237158501	
2506000000	-9.26810611585776	-1.48425367880442	-23.0146357648008	155.566042670329	-23.0269657130629	155.692170018447	-9.33084403827851	3.87073622978458	
2507000000	-9.25727102591678	-1.42060002168776	-23.125830574954	155.106721173526	-23.1041912411133	154.721704349792	-9.33608286078274	3.87573743431585	
2508000000	-9.22075998664379	-1.91143473592765	-23.1098027794543	153.469286684853	-23.0897037815004	155.440808291401	-9.33551805648477	3.32580333625938	
2509000000	-9.23456219154981	-2.23266382789807	-23.1261449766908	154.879467730793	-23.0271594038067	154.568712452824	-9.33284955632807	3.06183535822516	
2510000000	-9.27871479181771	-2.47105149518812	-23.212665068025	153.997447389602	-23.2517974647387	153.591699960535	-9.30295288223956	2.93085656712075	
2511000000	-9.28556130035711	-3.00409899410679	-23.1769051983419	152.814628856347	-23.2338534219461	153.242439098989	-9.31882228677618	2.32909197300383	
2512000000	-9.30241567486109	-2.96093972892744	-23.0630223973718	153.486421669404	-23.2183672253181	153.651414022103	-9.31971038669118	2.44241823919106	
2513000000	-9.30056950400766	-3.66532970476948	-23.3051882425839	153.655086648926	-23.3532743760476	153.316021011001	-9.24817132848394	2.13979069421311	
2514000000	-9.27887857894174	-4.20205995051398	-23.2873349247357	152.196061438126	-23.3305813621216	151.89854969156	-9.29398877292609	1.97726715129318	
2515000000	-9.22050615362807	-4.25261969371663	-23.3734311237986	152.803452719686	-23.2297103414828	152.605675165123	-9.26923534047924	1.7810168121776	
2516000000	-9.21089564409832	-4.4770844429124	-23.2660200288558	153.228251829882	-23.2345269199689	153.402950407291	-9.17626614900495	1.57454950119665	
2517000000	-9.19688617026663	-4.97899028217492	-23.1012334426991	152.502222462188	-23.2746407174694	151.36575505907	-9.15623262281398	1.22369580564725	
2518000000	-9.13418239125221	-5.37561223695269	-23.2893853642434	152.201089618826	-23.5226450630231	151.304715419002	-9.1122924118436	1.27071165879198	
2519000000	-9.15883829013297	-5.77334210864538	-23.3295724824892	151.82221185261	-23.2631658779571	151.827648426172	-9.12378789325971	1.03035012754359	
2520000000	-9.11594668376628	-6.0465022052623	-23.3267560441048	151.474087771297	-23.4440371549208	151.364893454091	-9.06754670972706	0.647848289722427	
2521000000	-9.07417760623445	-6.42847204719149	-23.1250736795481	151.660722073371	-23.2088250024078	151.013258595564	-9.0507892836744	0.208936560326245	
2522000000	-9.06726609902745	-6.68975580714706	-23.2138112821588	150.779420561629	-23.3066623407849	151.052387376175	-9.02972419181959	0.0651498021490485	
2523000000	-9.04319912670091	-6.88640313601824	-23.3827697961418	149.744827822065	-23.2273481729317	151.304052415183	-9.03175135179209	-0.0371132174412673	
2524000000	-9.04255025172187	-7.53313527403746	-23.3379123828121	150.29982525058	-23.2086732089959	150.887934594146	-8.96068629746031	-0.201785131220927	
2525000000	-8.94926479975077	-7.71173872521432	-23.3650183820586	149.834149909133	-23.3167722576044	151.183977248486	-8.97161221071643	-0.718855604590084	
2526000000	-8.96482119680873	-8.35458815667445	-23.3174850774757	149.690302652931	-23.414760953545	149.330192805861	-8.95808120435179	-0.851661934836371	
